<Qucs Dataset 0.0.15>
<indep x 12>
  +0.00000000000e+00
  +1.00000000000e+00
  +5.00000000000e+00
  +1.00000000000e+01
  +1.50000000000e+01
  +2.00000000000e+01
  +2.50000000000e+01
  +3.00000000000e+01
  +3.50000000000e+01
  +4.00000000000e+01
  +4.50000000000e+01
  +5.00000000000e+01
</indep>
<dep V1.I x>
  -2.35714285714e+00
  -2.06250000000e+00
  -1.37500000000e+00
  -9.70588235294e-01
  -7.50000000000e-01
  -6.11111111111e-01
  -5.15625000000e-01
  -4.45945945946e-01
  -3.92857142857e-01
  -3.51063829787e-01
  -3.17307692308e-01
  -2.89473684211e-01
</dep>
<dep izeja.V x>
  -0.00000000000e+00
  +2.06250000000e+00
  +6.87500000000e+00
  +9.70588235294e+00
  +1.12500000000e+01
  +1.22222222222e+01
  +1.28906250000e+01
  +1.33783783784e+01
  +1.37500000000e+01
  +1.40425531915e+01
  +1.42788461538e+01
  +1.44736842105e+01
</dep>
<dep _net0.V x>
  +1.65000000000e+01
  +1.65000000000e+01
  +1.65000000000e+01
  +1.65000000000e+01
  +1.65000000000e+01
  +1.65000000000e+01
  +1.65000000000e+01
  +1.65000000000e+01
  +1.65000000000e+01
  +1.65000000000e+01
  +1.65000000000e+01
  +1.65000000000e+01
</dep>
